T6A44 946:045.568   SEGGER J-Link V8.10f Log File
T6A44 946:045.632   DLL Compiled: Nov  6 2024 16:02:06
T6A44 946:045.632   Logging started @ 2024-12-19 11:54
T6A44 946:045.632   Process: C:\Keil_v5\UV4\UV4.EXE
T6A44 946:045.632 - 1860.716ms 
T6A44 946:045.632 JLINK_SetWarnOutHandler(...)
T6A44 946:045.632 - 0.005ms 
T6A44 946:045.632 JLINK_OpenEx(...)
T6A44 946:047.680   Firmware: J-Link OB-nRF5340-NordicSemi compiled Dec  3 2021 15:46:49
T6A44 946:048.320   Firmware: J-Link OB-nRF5340-NordicSemi compiled Dec  3 2021 15:46:49
T6A44 946:080.128   Hardware: V1.00
T6A44 946:080.256   S/N: 1050227424
T6A44 946:080.256   OEM: SEGGER
T6A44 946:080.256   Feature(s): RDI, FlashBP, FlashDL, JFlash, GDB
T6A44 946:080.896   Bootloader: (FW returned invalid version)
T6A44 946:081.664   TELNET listener socket opened on port 19021
T6A44 946:085.056   WEBSRV WEBSRV_Init(): Starting webserver thread(s)
T6A44 946:085.184   WEBSRV Webserver running on local port 19080
T6A44 946:085.248   Looking for J-Link GUI Server exe at: C:\Keil_v5\ARM\Segger\JLinkGUIServer.exe
T6A44 946:085.376   Looking for J-Link GUI Server exe at: C:\Program Files\SEGGER\JLink_V794i\JLinkGUIServer.exe
T6A44 946:085.504   Forking J-Link GUI Server: C:\Program Files\SEGGER\JLink_V794i\JLinkGUIServer.exe
T6A44 946:088.576   J-Link GUI Server info: "J-Link GUI server V7.94i "
T6A44 946:089.152 - 43.469ms returns "O.K."
T6A44 946:089.152 JLINK_GetEmuCaps()
T6A44 946:089.152 - 0.006ms returns 0xB8EA5A33
T6A44 946:089.152 JLINK_TIF_GetAvailable(...)
T6A44 946:089.472 - 0.240ms 
T6A44 946:089.472 JLINK_SetErrorOutHandler(...)
T6A44 946:089.472 - 0.005ms 
T6A44 946:089.472 JLINK_ExecCommand("ProjectFile = "C:\Users\J.Quilez\Desktop\Escritorio\nova-informatica\3rd-year\Hardware\DEFINITIVO-TOOLBOX\P5_840994-OrriosBaron_873499-QuilezVergara\nrf\keil\JLinkSettings.ini"", ...). 
T6A44 946:091.328 - 1.826ms returns 0x00
T6A44 946:091.712 JLINK_ExecCommand("Device = nRF52840_xxAA", ...). 
T6A44 946:092.032   Device "NRF52840_XXAA" selected.
T6A44 946:092.416 - 0.662ms returns 0x00
T6A44 946:092.416 JLINK_ExecCommand("DisableConnectionTimeout", ...). 
T6A44 946:092.416   ERROR: Unknown command
T6A44 946:092.416 - 0.011ms returns 0x01
T6A44 946:092.416 JLINK_GetHardwareVersion()
T6A44 946:092.416 - 0.005ms returns 10000
T6A44 946:092.416 JLINK_GetDLLVersion()
T6A44 946:092.416 - 0.005ms returns 81006
T6A44 946:092.416 JLINK_GetOEMString(...)
T6A44 946:092.416 JLINK_GetFirmwareString(...)
T6A44 946:092.416 - 0.005ms 
T6A44 946:092.544 JLINK_GetDLLVersion()
T6A44 946:092.544 - 0.005ms returns 81006
T6A44 946:092.544 JLINK_GetCompileDateTime()
T6A44 946:092.544 - 0.005ms 
T6A44 946:092.544 JLINK_GetFirmwareString(...)
T6A44 946:092.544 - 0.004ms 
T6A44 946:092.544 JLINK_GetHardwareVersion()
T6A44 946:092.544 - 0.004ms returns 10000
T6A44 946:092.544 JLINK_GetSN()
T6A44 946:092.544 - 0.005ms returns 1050227424
T6A44 946:092.544 JLINK_GetOEMString(...)
T6A44 946:092.544 JLINK_TIF_Select(JLINKARM_TIF_SWD)
T6A44 946:093.248 - 0.696ms returns 0x00
T6A44 946:093.248 JLINK_HasError()
T6A44 946:093.248 JLINK_SetSpeed(5000)
T6A44 946:093.376 - 0.097ms 
T6A44 946:093.440 JLINK_GetId()
T6A44 946:093.696   InitTarget() start
T6A44 946:093.696    J-Link Script File: Executing InitTarget()
T6A44 946:095.744   InitTarget() end - Took 2.10ms
T6A44 946:096.320   Found SW-DP with ID 0x2BA01477
T6A44 946:098.688   DPIDR: 0x2BA01477
T6A44 946:098.688   CoreSight SoC-400 or earlier
T6A44 946:098.688   Scanning AP map to find all available APs
T6A44 946:099.520   AP[2]: Stopped AP scan as end of AP map has been reached
T6A44 946:099.520   AP[0]: AHB-AP (IDR: 0x24770011, ADDR: 0x00000000)
T6A44 946:099.520   AP[1]: JTAG-AP (IDR: 0x02880000, ADDR: 0x01000000)
T6A44 946:099.520   Iterating through AP map to find AHB-AP to use
T6A44 946:100.416   AP[0]: Core found
T6A44 946:100.416   AP[0]: AHB-AP ROM base: 0xE00FF000
T6A44 946:100.928   CPUID register: 0x410FC241. Implementer code: 0x41 (ARM)
T6A44 946:100.928   Found Cortex-M4 r0p1, Little endian.
T6A44 946:101.376   -- Max. mem block: 0x0003C548
T6A44 946:101.632   CPU_ReadMem(4 bytes @ 0xE000EDF0)
T6A44 946:101.952   CPU_WriteMem(4 bytes @ 0xE000EDF0)
T6A44 946:102.272   CPU_ReadMem(4 bytes @ 0xE0002000)
T6A44 946:102.656   FPUnit: 6 code (BP) slots and 2 literal slots
T6A44 946:102.656   CPU_ReadMem(4 bytes @ 0xE000EDFC)
T6A44 946:102.976   CPU_WriteMem(4 bytes @ 0xE000EDFC)
T6A44 946:103.424   CPU_ReadMem(4 bytes @ 0xE0001000)
T6A44 946:103.680   CPU_WriteMem(4 bytes @ 0xE0001000)
T6A44 946:104.128   CPU_ReadMem(4 bytes @ 0xE000ED88)
T6A44 946:104.448   CPU_WriteMem(4 bytes @ 0xE000ED88)
T6A44 946:104.832   CPU_ReadMem(4 bytes @ 0xE000ED88)
T6A44 946:105.152   CPU_WriteMem(4 bytes @ 0xE000ED88)
T6A44 946:105.536   CoreSight components:
T6A44 946:105.536   ROMTbl[0] @ E00FF000
T6A44 946:105.536   CPU_ReadMem(64 bytes @ 0xE00FF000)
T6A44 946:106.368   CPU_ReadMem(32 bytes @ 0xE000EFE0)
T6A44 946:107.008   [0][0]: E000E000 CID B105E00D PID 000BB00C SCS-M7
T6A44 946:107.008   CPU_ReadMem(32 bytes @ 0xE0001FE0)
T6A44 946:107.584   [0][1]: E0001000 CID B105E00D PID 003BB002 DWT
T6A44 946:107.584   CPU_ReadMem(32 bytes @ 0xE0002FE0)
T6A44 946:108.224   [0][2]: E0002000 CID B105E00D PID 002BB003 FPB
T6A44 946:108.224   CPU_ReadMem(32 bytes @ 0xE0000FE0)
T6A44 946:108.800   [0][3]: E0000000 CID B105E00D PID 003BB001 ITM
T6A44 946:108.928   CPU_ReadMem(32 bytes @ 0xE0040FE0)
T6A44 946:109.440   [0][4]: E0040000 CID B105900D PID 000BB9A1 TPIU
T6A44 946:109.440   CPU_ReadMem(32 bytes @ 0xE0041FE0)
T6A44 946:110.080   [0][5]: E0041000 CID B105900D PID 000BB925 ETM
T6A44 946:110.272 - 16.859ms returns 0x2BA01477
T6A44 946:110.272 JLINK_GetDLLVersion()
T6A44 946:110.272 - 0.005ms returns 81006
T6A44 946:110.336 JLINK_CORE_GetFound()
T6A44 946:110.336 - 0.005ms returns 0xE0000FF
T6A44 946:110.336 JLINK_GetDebugInfo(0x100 = JLINKARM_ROM_TABLE_ADDR_INDEX)
T6A44 946:110.336   Value=0xE00FF000
T6A44 946:110.336 - 0.012ms returns 0
T6A44 946:110.336 JLINK_GetDebugInfo(0x100 = JLINKARM_ROM_TABLE_ADDR_INDEX)
T6A44 946:110.336   Value=0xE00FF000
T6A44 946:110.336 - 0.013ms returns 0
T6A44 946:110.336 JLINK_GetDebugInfo(0x101 = JLINKARM_DEBUG_INFO_ETM_ADDR_INDEX)
T6A44 946:110.336   Value=0xE0041000
T6A44 946:110.336 - 0.011ms returns 0
T6A44 946:110.336 JLINK_ReadMemEx(0xE0041FD0, 0x20 Bytes, Flags = 0x02000004)
T6A44 946:110.336   CPU_ReadMem(32 bytes @ 0xE0041FD0)
T6A44 946:110.976   Data:  04 00 00 00 00 00 00 00 00 00 00 00 00 00 00 00 ...
T6A44 946:110.976 - 0.607ms returns 32 (0x20)
T6A44 946:111.104 JLINK_GetDebugInfo(0x102 = JLINKARM_DEBUG_INFO_MTB_ADDR_INDEX)
T6A44 946:111.104   Value=0x00000000
T6A44 946:111.104 - 0.011ms returns 0
T6A44 946:111.104 JLINK_GetDebugInfo(0x103 = JLINKARM_DEBUG_INFO_TPIU_ADDR_INDEX)
T6A44 946:111.104   Value=0xE0040000
T6A44 946:111.104 - 0.011ms returns 0
T6A44 946:111.104 JLINK_GetDebugInfo(0x104 = JLINKARM_DEBUG_INFO_ITM_ADDR_INDEX)
T6A44 946:111.104   Value=0xE0000000
T6A44 946:111.104 - 0.011ms returns 0
T6A44 946:111.104 JLINK_GetDebugInfo(0x105 = JLINKARM_DEBUG_INFO_DWT_ADDR_INDEX)
T6A44 946:111.104   Value=0xE0001000
T6A44 946:111.104 - 0.011ms returns 0
T6A44 946:111.104 JLINK_GetDebugInfo(0x106 = JLINKARM_DEBUG_INFO_FPB_ADDR_INDEX)
T6A44 946:111.104   Value=0xE0002000
T6A44 946:111.104 - 0.011ms returns 0
T6A44 946:111.104 JLINK_GetDebugInfo(0x107 = JLINKARM_DEBUG_INFO_NVIC_ADDR_INDEX)
T6A44 946:111.104   Value=0xE000E000
T6A44 946:111.104 - 0.011ms returns 0
T6A44 946:111.104 JLINK_GetDebugInfo(0x10C = JLINKARM_DEBUG_INFO_DBG_ADDR_INDEX)
T6A44 946:111.168   Value=0xE000EDF0
T6A44 946:111.168 - 0.011ms returns 0
T6A44 946:111.168 JLINK_GetDebugInfo(0x01 = Unknown)
T6A44 946:111.168   Value=0x00000001
T6A44 946:111.168 - 0.011ms returns 0
T6A44 946:111.168 JLINK_ReadMemU32(0xE000ED00, 0x1 Items)
T6A44 946:111.168   CPU_ReadMem(4 bytes @ 0xE000ED00)
T6A44 946:111.488   Data:  41 C2 0F 41
T6A44 946:111.488   Debug reg: CPUID
T6A44 946:111.488 - 0.328ms returns 1 (0x1)
T6A44 946:111.488 JLINK_GetDebugInfo(0x10F = JLINKARM_DEBUG_INFO_HAS_CORTEX_M_SECURITY_EXT_INDEX)
T6A44 946:111.488   Value=0x00000000
T6A44 946:111.488 - 0.019ms returns 0
T6A44 946:111.488 JLINK_HasError()
T6A44 946:111.488 JLINK_SetResetType(JLINKARM_CM3_RESET_TYPE_NORMAL)
T6A44 946:111.488 - 0.005ms returns JLINKARM_CM3_RESET_TYPE_NORMAL
T6A44 946:111.616 JLINK_Reset()
T6A44 946:111.616   JLINK_GetResetTypeDesc
T6A44 946:111.616   - 0.004ms 
T6A44 946:111.616   Reset type: NORMAL (https://wiki.segger.com/J-Link_Reset_Strategies)
T6A44 946:111.616   CPU is running
T6A44 946:111.616   CPU_WriteMem(4 bytes @ 0xE000EDF0)
T6A44 946:111.872   CPU is running
T6A44 946:111.872   CPU_WriteMem(4 bytes @ 0xE000EDFC)
T6A44 946:112.320   Reset: Halt core after reset via DEMCR.VC_CORERESET.
T6A44 946:112.640   Reset: Reset device via AIRCR.SYSRESETREQ.
T6A44 946:112.640   CPU is running
T6A44 946:112.640   CPU_WriteMem(4 bytes @ 0xE000ED0C)
T6A44 946:165.440   CPU_ReadMem(4 bytes @ 0xE000EDF0)
T6A44 946:165.888   CPU_ReadMem(4 bytes @ 0xE000EDF0)
T6A44 946:169.856   CPU_WriteMem(4 bytes @ 0xE000EDFC)
T6A44 946:176.704   CPU_ReadMem(4 bytes @ 0xE000EDF0)
T6A44 946:180.480   CPU_WriteMem(4 bytes @ 0xE0002000)
T6A44 946:180.992   CPU_ReadMem(4 bytes @ 0xE000EDFC)
T6A44 946:181.440   CPU_ReadMem(4 bytes @ 0xE0001000)
T6A44 946:181.824 - 70.258ms 
T6A44 946:181.952 JLINK_HasError()
T6A44 946:181.952 JLINK_ReadReg(R15 (PC))
T6A44 946:181.952 - 0.007ms returns 0x00000214
T6A44 946:181.952 JLINK_ReadReg(XPSR)
T6A44 946:181.952 - 0.004ms returns 0x01000000
T6A44 946:181.952 JLINK_Halt()
T6A44 946:181.952 - 0.004ms returns 0x00
T6A44 946:181.952 JLINK_ReadMemU32(0xE000EDF0, 0x1 Items)
T6A44 946:181.952   CPU_ReadMem(4 bytes @ 0xE000EDF0)
T6A44 946:182.336   Data:  03 00 03 00
T6A44 946:182.336   Debug reg: DHCSR
T6A44 946:182.336 - 0.381ms returns 1 (0x1)
T6A44 946:182.336 JLINK_WriteU32(0xE000EDF0, 0xA05F0003)
T6A44 946:182.336   Debug reg: DHCSR
T6A44 946:182.528   CPU_WriteMem(4 bytes @ 0xE000EDF0)
T6A44 946:182.848 - 0.535ms returns 0 (0x00000000)
T6A44 946:182.848 JLINK_WriteU32(0xE000EDFC, 0x01000000)
T6A44 946:182.848   Debug reg: DEMCR
T6A44 946:182.848   CPU_WriteMem(4 bytes @ 0xE000EDFC)
T6A44 946:183.360 - 0.455ms returns 0 (0x00000000)
T6A44 946:183.360 JLINK_GetHWStatus(...)
T6A44 946:183.552 - 0.202ms returns 0
T6A44 946:183.552 JLINK_GetNumBPUnits(Type = 0xFFFFFF00)
T6A44 946:183.552 - 0.006ms returns 0x06
T6A44 946:183.552 JLINK_GetNumBPUnits(Type = 0xF0)
T6A44 946:183.552 - 0.004ms returns 0x2000
T6A44 946:183.680 JLINK_GetNumWPUnits()
T6A44 946:183.680 - 0.004ms returns 4
T6A44 946:183.680 JLINK_GetSpeed()
T6A44 946:183.680 - 0.004ms returns 2000
T6A44 946:183.680 JLINK_ReadMemU32(0xE000E004, 0x1 Items)
T6A44 946:183.680   CPU_ReadMem(4 bytes @ 0xE000E004)
T6A44 946:184.000   Data:  01 00 00 00
T6A44 946:184.000 - 0.360ms returns 1 (0x1)
T6A44 946:184.000 JLINK_ReadMemU32(0xE000E004, 0x1 Items)
T6A44 946:184.064   CPU_ReadMem(4 bytes @ 0xE000E004)
T6A44 946:184.512   Data:  01 00 00 00
T6A44 946:184.512 - 0.444ms returns 1 (0x1)
T6A44 946:184.512 JLINK_WriteMemEx(0xE0001000, 0x0000001C Bytes, Flags = 0x02000004)
T6A44 946:184.512   Data:  01 00 00 00 00 00 00 00 00 00 00 00 00 00 00 00 ...
T6A44 946:184.512   CPU_WriteMem(28 bytes @ 0xE0001000)
T6A44 946:185.088 - 0.587ms returns 0x1C
T6A44 946:185.088 JLINK_HasError()
T6A44 946:185.088 JLINK_ReadReg(R15 (PC))
T6A44 946:185.088 - 0.006ms returns 0x00000214
T6A44 946:185.088 JLINK_ReadReg(XPSR)
T6A44 946:185.088 - 0.005ms returns 0x01000000
T6A44 946:188.160 JLINK_ReadMemEx(0xE0001004, 0x4 Bytes, Flags = 0x02000000)
T6A44 946:188.160   Data:  00 00 00 00
T6A44 946:188.160   Debug reg: DWT_CYCCNT
T6A44 946:188.160 - 0.039ms returns 4 (0x4)
T6A44 946:259.456 JLINK_HasError()
T6A44 946:259.584 JLINK_SetResetType(JLINKARM_CM3_RESET_TYPE_NORMAL)
T6A44 946:259.584 - 0.006ms returns JLINKARM_CM3_RESET_TYPE_NORMAL
T6A44 946:259.584 JLINK_Reset()
T6A44 946:259.584   JLINK_GetResetTypeDesc
T6A44 946:259.584   - 0.005ms 
T6A44 946:259.584   Reset type: NORMAL (https://wiki.segger.com/J-Link_Reset_Strategies)
T6A44 946:259.584   CPU_WriteMem(4 bytes @ 0xE000EDF0)
T6A44 946:259.840   CPU_WriteMem(4 bytes @ 0xE000EDFC)
T6A44 946:260.288   Reset: Halt core after reset via DEMCR.VC_CORERESET.
T6A44 946:260.608   Reset: Reset device via AIRCR.SYSRESETREQ.
T6A44 946:260.608   CPU_WriteMem(4 bytes @ 0xE000ED0C)
T6A44 946:314.752   CPU_ReadMem(4 bytes @ 0xE000EDF0)
T6A44 946:315.456   CPU_ReadMem(4 bytes @ 0xE000EDF0)
T6A44 946:316.096   CPU_WriteMem(4 bytes @ 0xE000EDFC)
T6A44 946:322.560   CPU_ReadMem(4 bytes @ 0xE000EDF0)
T6A44 946:326.848   CPU_WriteMem(4 bytes @ 0xE0002000)
T6A44 946:327.424   CPU_ReadMem(4 bytes @ 0xE000EDFC)
T6A44 946:328.192   CPU_ReadMem(4 bytes @ 0xE0001000)
T6A44 946:328.768 - 69.207ms 
T6A44 946:328.960 JLINK_HasError()
T6A44 946:329.088 JLINK_ReadReg(R15 (PC))
T6A44 946:329.088 - 0.029ms returns 0x00000214
T6A44 946:329.088 JLINK_ReadReg(XPSR)
T6A44 946:329.216 - 0.021ms returns 0x01000000
T6A44 946:330.432 JLINK_ReadMemEx(0x00000200, 0x3C Bytes, Flags = 0x02000000)
T6A44 946:330.496   CPU_ReadMem(64 bytes @ 0x00000200)
T6A44 946:331.520    -- Updating C cache (64 bytes @ 0x00000200)
T6A44 946:331.648    -- Read from C cache (60 bytes @ 0x00000200)
T6A44 946:331.648   Data:  DF F8 0C D0 00 F0 F8 FA 00 48 00 47 29 24 00 00 ...
T6A44 946:331.648 - 1.243ms returns 60 (0x3C)
T7ED8 947:270.528 JLINK_ReadMemEx(0x00000214, 0x2 Bytes, Flags = 0x02000000)
T7ED8 947:270.528    -- Read from C cache (2 bytes @ 0x00000214)
T7ED8 947:270.528   Data:  06 48
T7ED8 947:270.528 - 0.045ms returns 2 (0x2)
T7ED8 947:270.528 JLINK_HasError()
T7ED8 947:270.528 JLINK_SetBPEx(Addr = 0x00002428, Type = 0xFFFFFFF2)
T7ED8 947:270.528 - 0.008ms returns 0x00000001
T7ED8 947:270.656 JLINK_HasError()
T7ED8 947:270.656 JLINK_HasError()
T7ED8 947:270.656 JLINK_Go()
T7ED8 947:270.976   CPU_WriteMem(4 bytes @ 0xE0002000)
T7ED8 947:271.360   CPU_ReadMem(4 bytes @ 0xE0001000)
T7ED8 947:271.680   CPU_WriteMem(4 bytes @ 0xE0002008)
T7ED8 947:271.680   CPU_WriteMem(4 bytes @ 0xE000200C)
T7ED8 947:271.680   CPU_WriteMem(4 bytes @ 0xE0002010)
T7ED8 947:271.680   CPU_WriteMem(4 bytes @ 0xE0002014)
T7ED8 947:271.680   CPU_WriteMem(4 bytes @ 0xE0002018)
T7ED8 947:271.680   CPU_WriteMem(4 bytes @ 0xE000201C)
T7ED8 947:273.024   CPU_WriteMem(4 bytes @ 0xE0001004)
T7ED8 947:274.432   Memory map 'after startup completion point' is active
T7ED8 947:274.432 - 3.814ms 
T7ED8 947:375.232 JLINK_HasError()
T7ED8 947:375.232 JLINK_IsHalted()
T7ED8 947:378.560 - 3.323ms returns TRUE
T7ED8 947:378.560 JLINK_HasError()
T7ED8 947:378.560 JLINK_Halt()
T7ED8 947:378.560 - 0.005ms returns 0x00
T7ED8 947:378.560 JLINK_IsHalted()
T7ED8 947:378.560 - 0.005ms returns TRUE
T7ED8 947:378.560 JLINK_IsHalted()
T7ED8 947:378.560 - 0.004ms returns TRUE
T7ED8 947:378.560 JLINK_IsHalted()
T7ED8 947:378.560 - 0.004ms returns TRUE
T7ED8 947:378.560 JLINK_HasError()
T7ED8 947:378.560 JLINK_ReadReg(R15 (PC))
T7ED8 947:378.560 - 0.006ms returns 0x00002428
T7ED8 947:378.560 JLINK_ReadReg(XPSR)
T7ED8 947:378.688 - 0.005ms returns 0x61000000
T7ED8 947:378.688 JLINK_HasError()
T7ED8 947:378.688 JLINK_ClrBPEx(BPHandle = 0x00000001)
T7ED8 947:378.688 - 0.005ms returns 0x00
T7ED8 947:378.688 JLINK_HasError()
T7ED8 947:378.688 JLINK_HasError()
T7ED8 947:378.688 JLINK_ReadMemU32(0xE000ED30, 0x1 Items)
T7ED8 947:378.688   CPU_ReadMem(4 bytes @ 0xE000ED30)
T7ED8 947:379.008   Data:  02 00 00 00
T7ED8 947:379.008 - 0.353ms returns 1 (0x1)
T7ED8 947:379.072 JLINK_ReadMemU32(0xE0001028, 0x1 Items)
T7ED8 947:379.072   CPU_ReadMem(4 bytes @ 0xE0001028)
T7ED8 947:379.392   Data:  00 00 00 00
T7ED8 947:379.392   Debug reg: DWT_FUNC[0]
T7ED8 947:379.392 - 0.377ms returns 1 (0x1)
T7ED8 947:379.392 JLINK_ReadMemU32(0xE0001038, 0x1 Items)
T7ED8 947:379.392   CPU_ReadMem(4 bytes @ 0xE0001038)
T7ED8 947:379.712   Data:  00 02 00 00
T7ED8 947:379.712   Debug reg: DWT_FUNC[1]
T7ED8 947:379.712 - 0.321ms returns 1 (0x1)
T7ED8 947:379.840 JLINK_ReadMemU32(0xE0001048, 0x1 Items)
T7ED8 947:379.840   CPU_ReadMem(4 bytes @ 0xE0001048)
T7ED8 947:380.096   Data:  00 00 00 00
T7ED8 947:380.096   Debug reg: DWT_FUNC[2]
T7ED8 947:380.096 - 0.396ms returns 1 (0x1)
T7ED8 947:380.096 JLINK_ReadMemU32(0xE0001058, 0x1 Items)
T7ED8 947:380.224   CPU_ReadMem(4 bytes @ 0xE0001058)
T7ED8 947:380.416   Data:  00 00 00 00
T7ED8 947:380.416   Debug reg: DWT_FUNC[3]
T7ED8 947:380.544 - 0.311ms returns 1 (0x1)
T7ED8 947:380.544 JLINK_HasError()
T7ED8 947:380.544 JLINK_ReadReg(R0)
T7ED8 947:380.544 - 0.005ms returns 0x00002429
T7ED8 947:380.544 JLINK_ReadReg(R1)
T7ED8 947:380.544 - 0.004ms returns 0x200094F0
T7ED8 947:380.544 JLINK_ReadReg(R2)
T7ED8 947:380.608 - 0.006ms returns 0x00000000
T7ED8 947:380.608 JLINK_ReadReg(R3)
T7ED8 947:380.608 - 0.004ms returns 0x00000C43
T7ED8 947:380.608 JLINK_ReadReg(R4)
T7ED8 947:380.608 - 0.004ms returns 0x000055A4
T7ED8 947:380.608 JLINK_ReadReg(R5)
T7ED8 947:380.608 - 0.004ms returns 0x000055A4
T7ED8 947:380.608 JLINK_ReadReg(R6)
T7ED8 947:380.608 - 0.004ms returns 0x00000000
T7ED8 947:380.608 JLINK_ReadReg(R7)
T7ED8 947:380.608 - 0.004ms returns 0x00000000
T7ED8 947:380.608 JLINK_ReadReg(R8)
T7ED8 947:380.608 - 0.004ms returns 0x00000000
T7ED8 947:380.608 JLINK_ReadReg(R9)
T7ED8 947:380.608 - 0.004ms returns 0x00000000
T7ED8 947:380.608 JLINK_ReadReg(R10)
T7ED8 947:380.608 - 0.004ms returns 0x00000000
T7ED8 947:380.608 JLINK_ReadReg(R11)
T7ED8 947:380.608 - 0.004ms returns 0x00000000
T7ED8 947:380.608 JLINK_ReadReg(R12)
T7ED8 947:380.736 - 0.004ms returns 0x00000000
T7ED8 947:380.736 JLINK_ReadReg(R13 (SP))
T7ED8 947:380.736 - 0.005ms returns 0x200094F0
T7ED8 947:380.736 JLINK_ReadReg(R14)
T7ED8 947:380.736 - 0.004ms returns 0x00000815
T7ED8 947:380.736 JLINK_ReadReg(R15 (PC))
T7ED8 947:380.736 - 0.004ms returns 0x00002428
T7ED8 947:380.736 JLINK_ReadReg(XPSR)
T7ED8 947:380.736 - 0.004ms returns 0x61000000
T7ED8 947:380.736 JLINK_ReadReg(MSP)
T7ED8 947:380.736 - 0.004ms returns 0x200094F0
T7ED8 947:380.736 JLINK_ReadReg(PSP)
T7ED8 947:380.736 - 0.004ms returns 0x00000000
T7ED8 947:380.736 JLINK_ReadReg(CFBP)
T7ED8 947:380.736 - 0.004ms returns 0x00000000
T7ED8 947:380.736 JLINK_ReadReg(FPSCR)
T7ED8 947:386.048 - 5.247ms returns 0x00000000
T7ED8 947:386.048 JLINK_ReadReg(FPS0)
T7ED8 947:386.048 - 0.006ms returns 0x00000000
T7ED8 947:386.048 JLINK_ReadReg(FPS1)
T7ED8 947:386.048 - 0.004ms returns 0x00000000
T7ED8 947:386.048 JLINK_ReadReg(FPS2)
T7ED8 947:386.048 - 0.004ms returns 0x00000000
T7ED8 947:386.048 JLINK_ReadReg(FPS3)
T7ED8 947:386.048 - 0.004ms returns 0x00000000
T7ED8 947:386.048 JLINK_ReadReg(FPS4)
T7ED8 947:386.048 - 0.004ms returns 0x00000000
T7ED8 947:386.048 JLINK_ReadReg(FPS5)
T7ED8 947:386.048 - 0.004ms returns 0x00000000
T7ED8 947:386.048 JLINK_ReadReg(FPS6)
T7ED8 947:386.048 - 0.004ms returns 0x00000000
T7ED8 947:386.048 JLINK_ReadReg(FPS7)
T7ED8 947:386.048 - 0.004ms returns 0x00000000
T7ED8 947:386.048 JLINK_ReadReg(FPS8)
T7ED8 947:386.048 - 0.004ms returns 0x00000000
T7ED8 947:386.176 JLINK_ReadReg(FPS9)
T7ED8 947:386.176 - 0.004ms returns 0x00000000
T7ED8 947:386.176 JLINK_ReadReg(FPS10)
T7ED8 947:386.176 - 0.004ms returns 0x00000000
T7ED8 947:386.176 JLINK_ReadReg(FPS11)
T7ED8 947:386.176 - 0.004ms returns 0x00000000
T7ED8 947:386.176 JLINK_ReadReg(FPS12)
T7ED8 947:386.176 - 0.004ms returns 0x00000000
T7ED8 947:386.176 JLINK_ReadReg(FPS13)
T7ED8 947:386.176 - 0.004ms returns 0x00000000
T7ED8 947:386.176 JLINK_ReadReg(FPS14)
T7ED8 947:386.176 - 0.004ms returns 0x00000000
T7ED8 947:386.176 JLINK_ReadReg(FPS15)
T7ED8 947:386.176 - 0.005ms returns 0x00000000
T7ED8 947:386.176 JLINK_ReadReg(FPS16)
T7ED8 947:386.176 - 0.004ms returns 0x00000000
T7ED8 947:386.176 JLINK_ReadReg(FPS17)
T7ED8 947:386.176 - 0.004ms returns 0x00000000
T7ED8 947:386.176 JLINK_ReadReg(FPS18)
T7ED8 947:386.176 - 0.004ms returns 0x00000000
T7ED8 947:386.240 JLINK_ReadReg(FPS19)
T7ED8 947:386.240 - 0.004ms returns 0x00000000
T7ED8 947:386.240 JLINK_ReadReg(FPS20)
T7ED8 947:386.240 - 0.004ms returns 0x00000000
T7ED8 947:386.240 JLINK_ReadReg(FPS21)
T7ED8 947:386.240 - 0.004ms returns 0x00000000
T7ED8 947:386.240 JLINK_ReadReg(FPS22)
T7ED8 947:386.240 - 0.004ms returns 0x00000000
T7ED8 947:386.240 JLINK_ReadReg(FPS23)
T7ED8 947:386.240 - 0.004ms returns 0x00000000
T7ED8 947:386.240 JLINK_ReadReg(FPS24)
T7ED8 947:386.240 - 0.004ms returns 0x00000000
T7ED8 947:386.240 JLINK_ReadReg(FPS25)
T7ED8 947:386.240 - 0.004ms returns 0x00000000
T7ED8 947:386.240 JLINK_ReadReg(FPS26)
T7ED8 947:386.240 - 0.004ms returns 0x00000000
T7ED8 947:386.240 JLINK_ReadReg(FPS27)
T7ED8 947:386.240 - 0.004ms returns 0x00000000
T7ED8 947:386.240 JLINK_ReadReg(FPS28)
T7ED8 947:386.368 - 0.004ms returns 0x00000000
T7ED8 947:386.368 JLINK_ReadReg(FPS29)
T7ED8 947:386.368 - 0.004ms returns 0x00000000
T7ED8 947:386.368 JLINK_ReadReg(FPS30)
T7ED8 947:386.368 - 0.004ms returns 0x00000000
T7ED8 947:386.368 JLINK_ReadReg(FPS31)
T7ED8 947:386.368 - 0.005ms returns 0x00000000
T6A44 947:389.632 JLINK_ReadMemEx(0x00002328, 0x3C Bytes, Flags = 0x02000000)
T6A44 947:389.632   CPU_ReadMem(128 bytes @ 0x00002300)
T6A44 947:390.848    -- Updating C cache (128 bytes @ 0x00002300)
T6A44 947:390.848    -- Read from C cache (60 bytes @ 0x00002328)
T6A44 947:390.848   Data:  00 28 09 DB 00 F0 1F 04 01 21 A1 40 44 09 A4 00 ...
T6A44 947:390.848 - 1.290ms returns 60 (0x3C)
T6A44 947:390.848 JLINK_ReadMemEx(0x00002364, 0x3C Bytes, Flags = 0x02000000)
T6A44 947:390.848   CPU_ReadMem(64 bytes @ 0x00002380)
T6A44 947:391.680    -- Updating C cache (64 bytes @ 0x00002380)
T6A44 947:391.680    -- Read from C cache (60 bytes @ 0x00002364)
T6A44 947:391.680   Data:  70 47 00 00 F4 00 00 20 2D E9 FC 41 06 46 0C 46 ...
T6A44 947:391.680 - 0.802ms returns 60 (0x3C)
T6A44 947:391.680 JLINK_ReadMemEx(0x000023A0, 0x3C Bytes, Flags = 0x02000000)
T6A44 947:391.680   CPU_ReadMem(64 bytes @ 0x000023C0)
T6A44 947:392.512    -- Updating C cache (64 bytes @ 0x000023C0)
T6A44 947:392.512    -- Read from C cache (60 bytes @ 0x000023A0)
T6A44 947:392.512   Data:  FF F7 38 FC 00 F1 01 08 41 46 0F 20 02 F0 10 FF ...
T6A44 947:392.512 - 0.798ms returns 60 (0x3C)
T6A44 947:392.512 JLINK_ReadMemEx(0x000023DC, 0x24 Bytes, Flags = 0x02000000)
T6A44 947:392.512    -- Read from C cache (36 bytes @ 0x000023DC)
T6A44 947:392.512   Data:  FE F7 EE FB 09 48 40 68 41 19 08 48 41 60 00 68 ...
T6A44 947:392.512 - 0.018ms returns 36 (0x24)
T6A44 947:392.512 JLINK_ReadMemEx(0x00002400, 0x18 Bytes, Flags = 0x02000000)
T6A44 947:392.512   CPU_ReadMem(64 bytes @ 0x00002400)
T6A44 947:393.344    -- Updating C cache (64 bytes @ 0x00002400)
T6A44 947:393.344    -- Read from C cache (24 bytes @ 0x00002400)
T6A44 947:393.344   Data:  BD E8 FC 81 6C 00 00 20 10 48 00 20 10 08 00 20 ...
T6A44 947:393.344 - 0.817ms returns 24 (0x18)
T6A44 947:393.344 JLINK_ReadMemEx(0x00002424, 0x3C Bytes, Flags = 0x02000000)
T6A44 947:393.344   CPU_ReadMem(64 bytes @ 0x00002440)
T6A44 947:394.176    -- Updating C cache (64 bytes @ 0x00002440)
T6A44 947:394.176    -- Read from C cache (60 bytes @ 0x00002424)
T6A44 947:394.176   Data:  70 00 00 20 F8 B5 0D 26 0E 2E 73 D2 DF E8 06 F0 ...
T6A44 947:394.240 - 0.832ms returns 60 (0x3C)
T7ED8 948:860.096 JLINK_ReadMemEx(0x00002428, 0x2 Bytes, Flags = 0x02000000)
T7ED8 948:860.096    -- Read from C cache (2 bytes @ 0x00002428)
T7ED8 948:860.096   Data:  F8 B5
T7ED8 948:860.224 - 0.037ms returns 2 (0x2)
T7ED8 948:860.224 JLINK_HasError()
T7ED8 948:860.224 JLINK_HasError()
T7ED8 948:860.224 JLINK_Go()
T7ED8 948:860.608   CPU_ReadMem(4 bytes @ 0xE0001000)
T7ED8 948:860.928   CPU_WriteMem(4 bytes @ 0xE0002008)
T7ED8 948:861.824 - 1.672ms 
T7ED8 948:962.176 JLINK_HasError()
T7ED8 948:962.304 JLINK_IsHalted()
T7ED8 948:962.624 - 0.395ms returns FALSE
T7ED8 949:063.296 JLINK_HasError()
T7ED8 949:063.296 JLINK_IsHalted()
T7ED8 949:063.680 - 0.388ms returns FALSE
T7ED8 949:164.352 JLINK_HasError()
T7ED8 949:164.352 JLINK_IsHalted()
T7ED8 949:164.736 - 0.381ms returns FALSE
T7ED8 949:264.896 JLINK_HasError()
T7ED8 949:265.024 JLINK_IsHalted()
T7ED8 949:265.600 - 0.683ms returns FALSE
T7ED8 949:365.888 JLINK_HasError()
T7ED8 949:365.888 JLINK_IsHalted()
T7ED8 949:366.400 - 0.556ms returns FALSE
T7ED8 949:466.496 JLINK_HasError()
T7ED8 949:466.624 JLINK_HasError()
T7ED8 949:466.624 JLINK_ReadMemU32(0xE0001004, 0x1 Items)
T7ED8 949:466.624   CPU_ReadMem(4 bytes @ 0xE0001004)
T7ED8 949:467.264   Data:  3B 9C 53 02
